<Qucs Dataset 0.0.20>
<indep time 111>
  +0.00000000000000000000e+00
  +9.09090909090909046752e-03
  +1.81818181818181809350e-02
  +2.72727272727272714026e-02
  +3.63636363636363618701e-02
  +4.54545454545454558071e-02
  +5.45454545454545428051e-02
  +6.36363636363636298032e-02
  +7.27272727272727237402e-02
  +8.18181818181818176772e-02
  +9.09090909090909116141e-02
  +9.99999999999999916733e-02
  +1.09090909090909085610e-01
  +1.18181818181818179547e-01
  +1.27272727272727259606e-01
  +1.36363636363636353543e-01
  +1.45454545454545447480e-01
  +1.54545454545454541417e-01
  +1.63636363636363635354e-01
  +1.72727272727272729291e-01
  +1.81818181818181823228e-01
  +1.90909090909090889410e-01
  +1.99999999999999983347e-01
  +2.09090909090909077284e-01
  +2.18181818181818171221e-01
  +2.27272727272727265158e-01
  +2.36363636363636359095e-01
  +2.45454545454545453032e-01
  +2.54545454545454519213e-01
  +2.63636363636363613150e-01
  +2.72727272727272707087e-01
  +2.81818181818181801024e-01
  +2.90909090909090894961e-01
  +2.99999999999999988898e-01
  +3.09090909090909082835e-01
  +3.18181818181818176772e-01
  +3.27272727272727270709e-01
  +3.36363636363636364646e-01
  +3.45454545454545458583e-01
  +3.54545454545454552520e-01
  +3.63636363636363646457e-01
  +3.72727272727272684882e-01
  +3.81818181818181778819e-01
  +3.90909090909090872756e-01
  +3.99999999999999966693e-01
  +4.09090909090909060630e-01
  +4.18181818181818154567e-01
  +4.27272727272727248504e-01
  +4.36363636363636342441e-01
  +4.45454545454545436378e-01
  +4.54545454545454530315e-01
  +4.63636363636363624252e-01
  +4.72727272727272718189e-01
  +4.81818181818181812126e-01
  +4.90909090909090906063e-01
  +5.00000000000000000000e-01
  +5.09090909090909038426e-01
  +5.18181818181818187874e-01
  +5.27272727272727226300e-01
  +5.36363636363636375748e-01
  +5.45454545454545414174e-01
  +5.54545454545454563622e-01
  +5.63636363636363602048e-01
  +5.72727272727272751496e-01
  +5.81818181818181789922e-01
  +5.90909090909090828347e-01
  +5.99999999999999977796e-01
  +6.09090909090909016221e-01
  +6.18181818181818165669e-01
  +6.27272727272727204095e-01
  +6.36363636363636353543e-01
  +6.45454545454545391969e-01
  +6.54545454545454541417e-01
  +6.63636363636363579843e-01
  +6.72727272727272729291e-01
  +6.81818181818181767717e-01
  +6.90909090909090917165e-01
  +6.99999999999999955591e-01
  +7.09090909090909105039e-01
  +7.18181818181818143465e-01
  +7.27272727272727292913e-01
  +7.36363636363636331339e-01
  +7.45454545454545369765e-01
  +7.54545454545454519213e-01
  +7.63636363636363557639e-01
  +7.72727272727272707087e-01
  +7.81818181818181745513e-01
  +7.90909090909090894961e-01
  +7.99999999999999933387e-01
  +8.09090909090909082835e-01
  +8.18181818181818121261e-01
  +8.27272727272727270709e-01
  +8.36363636363636309135e-01
  +8.45454545454545458583e-01
  +8.54545454545454497008e-01
  +8.63636363636363646457e-01
  +8.72727272727272684882e-01
  +8.81818181818181723308e-01
  +8.90909090909090872756e-01
  +8.99999999999999911182e-01
  +9.09090909090909060630e-01
  +9.18181818181818099056e-01
  +9.27272727272727248504e-01
  +9.36363636363636286930e-01
  +9.45454545454545436378e-01
  +9.54545454545454474804e-01
  +9.63636363636363624252e-01
  +9.72727272727272662678e-01
  +9.81818181818181812126e-01
  +9.90909090909090850552e-01
  +1.00000000000000000000e+00
</indep>
<dep V1.It time>
  +0.00000000000000000000e+00
  +0.00000000000000000000e+00
  +0.00000000000000000000e+00
  +0.00000000000000000000e+00
  +0.00000000000000000000e+00
  +0.00000000000000000000e+00
  +0.00000000000000000000e+00
  +0.00000000000000000000e+00
  +0.00000000000000000000e+00
  +0.00000000000000000000e+00
  +0.00000000000000000000e+00
  +0.00000000000000000000e+00
  +0.00000000000000000000e+00
  +0.00000000000000000000e+00
  +0.00000000000000000000e+00
  +0.00000000000000000000e+00
  +0.00000000000000000000e+00
  +0.00000000000000000000e+00
  +0.00000000000000000000e+00
  +0.00000000000000000000e+00
  +0.00000000000000000000e+00
  +0.00000000000000000000e+00
  +0.00000000000000000000e+00
  +0.00000000000000000000e+00
  +0.00000000000000000000e+00
  +0.00000000000000000000e+00
  +0.00000000000000000000e+00
  +0.00000000000000000000e+00
  +0.00000000000000000000e+00
  +0.00000000000000000000e+00
  +0.00000000000000000000e+00
  +0.00000000000000000000e+00
  +0.00000000000000000000e+00
  +0.00000000000000000000e+00
  +0.00000000000000000000e+00
  +0.00000000000000000000e+00
  +0.00000000000000000000e+00
  +0.00000000000000000000e+00
  +0.00000000000000000000e+00
  +0.00000000000000000000e+00
  +0.00000000000000000000e+00
  +0.00000000000000000000e+00
  +0.00000000000000000000e+00
  +0.00000000000000000000e+00
  +0.00000000000000000000e+00
  +0.00000000000000000000e+00
  +0.00000000000000000000e+00
  +0.00000000000000000000e+00
  +0.00000000000000000000e+00
  +0.00000000000000000000e+00
  +0.00000000000000000000e+00
  +0.00000000000000000000e+00
  +0.00000000000000000000e+00
  +0.00000000000000000000e+00
  +0.00000000000000000000e+00
  +0.00000000000000000000e+00
  +0.00000000000000000000e+00
  +0.00000000000000000000e+00
  +0.00000000000000000000e+00
  +0.00000000000000000000e+00
  +0.00000000000000000000e+00
  +0.00000000000000000000e+00
  +0.00000000000000000000e+00
  +0.00000000000000000000e+00
  +0.00000000000000000000e+00
  +0.00000000000000000000e+00
  +0.00000000000000000000e+00
  +0.00000000000000000000e+00
  +0.00000000000000000000e+00
  +0.00000000000000000000e+00
  +0.00000000000000000000e+00
  +0.00000000000000000000e+00
  +0.00000000000000000000e+00
  +0.00000000000000000000e+00
  +0.00000000000000000000e+00
  +0.00000000000000000000e+00
  +0.00000000000000000000e+00
  +0.00000000000000000000e+00
  +0.00000000000000000000e+00
  +0.00000000000000000000e+00
  +0.00000000000000000000e+00
  +0.00000000000000000000e+00
  +0.00000000000000000000e+00
  +0.00000000000000000000e+00
  +0.00000000000000000000e+00
  +0.00000000000000000000e+00
  +0.00000000000000000000e+00
  +0.00000000000000000000e+00
  +0.00000000000000000000e+00
  +0.00000000000000000000e+00
  +0.00000000000000000000e+00
  +0.00000000000000000000e+00
  +0.00000000000000000000e+00
  +0.00000000000000000000e+00
  +0.00000000000000000000e+00
  +0.00000000000000000000e+00
  +0.00000000000000000000e+00
  +0.00000000000000000000e+00
  +0.00000000000000000000e+00
  +0.00000000000000000000e+00
  +0.00000000000000000000e+00
  +0.00000000000000000000e+00
  +0.00000000000000000000e+00
  +0.00000000000000000000e+00
  +0.00000000000000000000e+00
  +0.00000000000000000000e+00
  +0.00000000000000000000e+00
  +0.00000000000000000000e+00
  +0.00000000000000000000e+00
  +0.00000000000000000000e+00
  +0.00000000000000000000e+00
</dep>
<dep V2.It time>
  +0.00000000000000000000e+00
  +0.00000000000000000000e+00
  +0.00000000000000000000e+00
  +0.00000000000000000000e+00
  +0.00000000000000000000e+00
  +0.00000000000000000000e+00
  +0.00000000000000000000e+00
  +0.00000000000000000000e+00
  +0.00000000000000000000e+00
  +0.00000000000000000000e+00
  +0.00000000000000000000e+00
  +0.00000000000000000000e+00
  +0.00000000000000000000e+00
  +0.00000000000000000000e+00
  +0.00000000000000000000e+00
  +0.00000000000000000000e+00
  +0.00000000000000000000e+00
  +0.00000000000000000000e+00
  +0.00000000000000000000e+00
  +0.00000000000000000000e+00
  +0.00000000000000000000e+00
  +0.00000000000000000000e+00
  +0.00000000000000000000e+00
  +0.00000000000000000000e+00
  +0.00000000000000000000e+00
  +0.00000000000000000000e+00
  +0.00000000000000000000e+00
  +0.00000000000000000000e+00
  +0.00000000000000000000e+00
  +0.00000000000000000000e+00
  +0.00000000000000000000e+00
  +0.00000000000000000000e+00
  +0.00000000000000000000e+00
  +0.00000000000000000000e+00
  +0.00000000000000000000e+00
  +0.00000000000000000000e+00
  +0.00000000000000000000e+00
  +0.00000000000000000000e+00
  +0.00000000000000000000e+00
  +0.00000000000000000000e+00
  +0.00000000000000000000e+00
  +0.00000000000000000000e+00
  +0.00000000000000000000e+00
  +0.00000000000000000000e+00
  +0.00000000000000000000e+00
  +0.00000000000000000000e+00
  +0.00000000000000000000e+00
  +0.00000000000000000000e+00
  +0.00000000000000000000e+00
  +0.00000000000000000000e+00
  +0.00000000000000000000e+00
  +0.00000000000000000000e+00
  +0.00000000000000000000e+00
  +0.00000000000000000000e+00
  +0.00000000000000000000e+00
  +0.00000000000000000000e+00
  +0.00000000000000000000e+00
  +0.00000000000000000000e+00
  +0.00000000000000000000e+00
  +0.00000000000000000000e+00
  +0.00000000000000000000e+00
  +0.00000000000000000000e+00
  +0.00000000000000000000e+00
  +0.00000000000000000000e+00
  +0.00000000000000000000e+00
  +0.00000000000000000000e+00
  +0.00000000000000000000e+00
  +0.00000000000000000000e+00
  +0.00000000000000000000e+00
  +0.00000000000000000000e+00
  +0.00000000000000000000e+00
  +0.00000000000000000000e+00
  +0.00000000000000000000e+00
  +0.00000000000000000000e+00
  +0.00000000000000000000e+00
  +0.00000000000000000000e+00
  +0.00000000000000000000e+00
  +0.00000000000000000000e+00
  +0.00000000000000000000e+00
  +0.00000000000000000000e+00
  +0.00000000000000000000e+00
  +0.00000000000000000000e+00
  +0.00000000000000000000e+00
  +0.00000000000000000000e+00
  +0.00000000000000000000e+00
  +0.00000000000000000000e+00
  +0.00000000000000000000e+00
  +0.00000000000000000000e+00
  +0.00000000000000000000e+00
  +0.00000000000000000000e+00
  +0.00000000000000000000e+00
  +0.00000000000000000000e+00
  +0.00000000000000000000e+00
  +0.00000000000000000000e+00
  +0.00000000000000000000e+00
  +0.00000000000000000000e+00
  +0.00000000000000000000e+00
  +0.00000000000000000000e+00
  +0.00000000000000000000e+00
  +0.00000000000000000000e+00
  +0.00000000000000000000e+00
  +0.00000000000000000000e+00
  +0.00000000000000000000e+00
  +0.00000000000000000000e+00
  +0.00000000000000000000e+00
  +0.00000000000000000000e+00
  +0.00000000000000000000e+00
  +0.00000000000000000000e+00
  +0.00000000000000000000e+00
  +0.00000000000000000000e+00
  +0.00000000000000000000e+00
</dep>
<dep V3.It time>
  +0.00000000000000000000e+00
  -2.09990895044163093652e-03
  -2.09981798349719419108e-03
  -2.09972709906315353062e-03
  -2.09963629703213824559e-03
  -2.09954557729677632541e-03
  -2.09945493974937223355e-03
  -2.09936438428226382694e-03
  -2.09927391078780717706e-03
  -2.09918351915834534502e-03
  -2.09909320928618973318e-03
  -2.09900298106359189595e-03
  +9.96113877664923959621e-07
  +9.95209636337530167811e-07
  +9.94306216683660884436e-07
  +9.93403617961339599897e-07
  +9.92501839428378046360e-07
  +9.91600880339439322769e-07
  +9.90700739949863942664e-07
  +9.89801417515667928364e-07
  +9.88902912293544716785e-07
  +9.88005223540863253620e-07
  +9.87108350515667146304e-07
  -2.09892273599016250529e-03
  -2.09883266176928142896e-03
  -2.09874266888323375221e-03
  -2.09865275722425975377e-03
  -2.09856292668433516702e-03
  -2.09847317715484375095e-03
  -2.09838350852693377585e-03
  -2.09829392069149373717e-03
  -2.09820441353912243154e-03
  -2.09811498696010683904e-03
  -2.09802564084438612768e-03
  +1.97256689576182000362e-06
  +1.97077625962995386569e-06
  +1.96898725073839867678e-06
  +1.96719986761741928922e-06
  +1.96541410879697519998e-06
  +1.96362997280068840551e-06
  +1.96184745815352599058e-06
  +1.96006656338179546960e-06
  +1.95828728701314563367e-06
  +1.95650962757656231536e-06
  +1.95473358360237135339e-06
  -2.09795598290820825560e-03
  -2.09786677965677305011e-03
  -2.09777765655533299238e-03
  -2.09768861349265024058e-03
  -2.09759965035691145832e-03
  -2.09751076703539257942e-03
  -2.09742196341481355881e-03
  -2.09733323938129543815e-03
  -2.09724459482032912078e-03
  -2.09715602961673764151e-03
  -2.09706754365463670167e-03
  +2.92979433166334047819e-06
  +2.92713473237448988190e-06
  +2.92447755029209613466e-06
  +2.92182278323201998394e-06
  +2.91917042900966139130e-06
  +2.91652048543101994666e-06
  +2.91387295030409254363e-06
  +2.91122782143887507355e-06
  +2.90858509664735734334e-06
  +2.90594477374352222845e-06
  +2.90330685054334270822e-06
  -2.09700826002077230642e-03
  -2.09691990592498610918e-03
  -2.09683163074841569240e-03
  -2.09674343437249660962e-03
  -2.09665531667767171889e-03
  -2.09656727754304076858e-03
  -2.09647931684669303065e-03
  -2.09639143446565395790e-03
  -2.09630363027583487695e-03
  -2.09621590415197314033e-03
  -2.09612825596757618163e-03
  +3.86822929392310575634e-06
  +3.86471774547289417898e-06
  +3.86120938915629160516e-06
  +3.85770422208687148381e-06
  +3.85420224137744408719e-06
  +3.85070344412857752035e-06
  +3.84720782744348347820e-06
  +3.84371538842802148062e-06
  +3.84022612419069124919e-06
  +3.83674003184264033050e-06
  +3.83325710849765054358e-06
  -2.09607913791261127670e-03
  -2.09599161065377121230e-03
  -2.09590416098912870821e-03
  -2.09581678878733397228e-03
  -2.09572949391540397021e-03
  -2.09564227623836073569e-03
  -2.09555513561951890084e-03
  -2.09546807192041023571e-03
  -2.09538108500069387638e-03
  -2.09529417471806698667e-03
  -2.09520734092816717994e-03
  +4.78830820602789520793e-06
  +4.78396129153969015493e-06
  +4.77961832975038208740e-06
  +4.77527931708138301110e-06
  +4.77094424995338156566e-06
  +4.76661312477174864687e-06
  +4.76228593794515942607e-06
  +4.75796268588558742089e-06
  +4.75364336500829856602e-06
  +4.74932797173185375432e-06
  +4.74501650247810375461e-06
</dep>
<dep V4.It time>
  +0.00000000000000000000e+00
  -4.57411886145564494655e-13
  -2.53130849614535691217e-14
  +1.52100554373646446038e-14
  +1.27398092075736713014e-14
  +1.06650799303054100164e-14
  +8.91647866652078846528e-15
  +7.46624984060417773435e-15
  +6.23112672570869108313e-15
  +5.21804821573823573999e-15
  +4.37150315946155387792e-15
  +3.65679708735910935502e-15
  +2.50039027694217985901e-13
  +1.41407874071243200243e-14
  -8.43578773424732746883e-15
  -7.06224199868769890963e-15
  -5.91234199096149185427e-15
  -4.94967289772595391581e-15
  -4.14374909840062681572e-15
  -3.46904875237003759513e-15
  -2.90420557822022124950e-15
  -2.43133223042861455689e-15
  -2.03545384632986020507e-15
  -6.55642207192386194947e-13
  -3.61932706027801032178e-14
  +2.17187379192296248220e-14
  +1.81382686648134949792e-14
  +1.51684220739412012335e-14
  +1.27120536319580423879e-14
  +1.06373243546897811029e-14
  +8.90953977261688123690e-15
  +7.45237205279636327759e-15
  +6.21724893790087662637e-15
  +5.20417042793042128324e-15
  +5.09285352834934342895e-13
  +2.81601868517561679920e-14
  -1.68969355720986102221e-14
  -1.41457148763881387821e-14
  -1.18424579717572846215e-14
  -9.91422575941573031924e-15
  -8.29995535074523544410e-15
  -6.94852633943088418234e-15
  -5.81714193021890115371e-15
  -4.86997365819619998341e-15
  -4.07702677982148205362e-15
  -5.15920639543310244335e-13
  -2.84633427938274508051e-14
  +1.70974345792274107225e-14
  +1.43149381237606121431e-14
  +1.19973475598555978650e-14
  +1.00405794789537594625e-14
  +8.40993941153556079371e-15
  +7.04297731246583680331e-15
  +5.89805981832114412100e-15
  +4.94049245958194660489e-15
  +4.14251966063261534146e-15
  +4.63502709168424610137e-13
  +2.56490240201080602170e-14
  -1.53874834796894158808e-14
  -1.28820372806680029508e-14
  -1.07845369725049438555e-14
  -9.02855931692314689136e-15
  -7.55849634963659615821e-15
  -6.32779439798149290645e-15
  -5.29747982812097067551e-15
  -4.43492483546881905717e-15
  -3.71281419361905846826e-15
  -4.81725770384855422890e-13
  -2.65759636519646846864e-14
  +1.59455781911788108118e-14
  +1.33434929772136001702e-14
  +1.11716191852906376880e-14
  +9.35362898246694385307e-15
  +7.82707232360735360999e-15
  +6.56419363309623804525e-15
  +5.50254286579843210347e-15
  +4.59354776438658518600e-15
  +3.84414722276460452122e-15
  +2.81355343561704493597e-13
  +1.58536421404291535402e-14
  -9.46795875747595073862e-15
  -7.92635117019757464429e-15
  -6.63575375459718387078e-15
  -5.55529611875033080226e-15
  -4.65076253705496471162e-15
  -3.89350841318240760122e-15
  -3.25955316848355976892e-15
  -2.72882082961444569605e-15
  -2.28450426645501446420e-15
  -4.80060435847917688079e-13
  -2.65482080763490557729e-14
  +1.59317004033709963551e-14
  +1.33226762955018784851e-14
  +1.11438636096750087745e-14
  +9.33975119465912939631e-15
  +7.80625564189563192485e-15
  +6.54337695138451636012e-15
  +5.48866507799061764672e-15
  +4.57966997657877072925e-15
  +3.83026943495679006446e-15
  +4.43627804250241184557e-13
  +2.45806000491415792036e-14
  -1.47423144322050085414e-14
  -1.23419170112946561672e-14
  -1.03323610559364302909e-14
  -8.65000833278433329757e-15
  -7.24158241782012171090e-15
  -6.06248154875492542231e-15
  -5.07536618495846585268e-15
  -4.24897654603337830308e-15
  -3.55714268307312713330e-15
</dep>
<dep VinDif.Vt time>
  +0.00000000000000000000e+00
  +1.00000000000000000000e+00
  +1.00000000000000000000e+00
  +1.00000000000000000000e+00
  +1.00000000000000000000e+00
  +1.00000000000000000000e+00
  +1.00000000000000000000e+00
  +1.00000000000000000000e+00
  +1.00000000000000000000e+00
  +1.00000000000000000000e+00
  +1.00000000000000000000e+00
  +1.00000000000000000000e+00
  +0.00000000000000000000e+00
  +0.00000000000000000000e+00
  +0.00000000000000000000e+00
  +0.00000000000000000000e+00
  +0.00000000000000000000e+00
  +0.00000000000000000000e+00
  +0.00000000000000000000e+00
  +0.00000000000000000000e+00
  +0.00000000000000000000e+00
  +0.00000000000000000000e+00
  +0.00000000000000000000e+00
  +1.00000000000000000000e+00
  +1.00000000000000000000e+00
  +1.00000000000000000000e+00
  +1.00000000000000000000e+00
  +1.00000000000000000000e+00
  +1.00000000000000000000e+00
  +1.00000000000000000000e+00
  +1.00000000000000000000e+00
  +1.00000000000000000000e+00
  +1.00000000000000000000e+00
  +1.00000000000000000000e+00
  +0.00000000000000000000e+00
  +0.00000000000000000000e+00
  +0.00000000000000000000e+00
  +0.00000000000000000000e+00
  +0.00000000000000000000e+00
  +0.00000000000000000000e+00
  +0.00000000000000000000e+00
  +0.00000000000000000000e+00
  +0.00000000000000000000e+00
  +0.00000000000000000000e+00
  +0.00000000000000000000e+00
  +1.00000000000000000000e+00
  +1.00000000000000000000e+00
  +1.00000000000000000000e+00
  +1.00000000000000000000e+00
  +1.00000000000000000000e+00
  +1.00000000000000000000e+00
  +1.00000000000000000000e+00
  +1.00000000000000000000e+00
  +1.00000000000000000000e+00
  +1.00000000000000000000e+00
  +1.00000000000000000000e+00
  +0.00000000000000000000e+00
  +0.00000000000000000000e+00
  +0.00000000000000000000e+00
  +0.00000000000000000000e+00
  +0.00000000000000000000e+00
  +0.00000000000000000000e+00
  +0.00000000000000000000e+00
  +0.00000000000000000000e+00
  +0.00000000000000000000e+00
  +0.00000000000000000000e+00
  +0.00000000000000000000e+00
  +1.00000000000000000000e+00
  +1.00000000000000000000e+00
  +1.00000000000000000000e+00
  +1.00000000000000000000e+00
  +1.00000000000000000000e+00
  +1.00000000000000000000e+00
  +1.00000000000000000000e+00
  +1.00000000000000000000e+00
  +1.00000000000000000000e+00
  +1.00000000000000000000e+00
  +1.00000000000000000000e+00
  +0.00000000000000000000e+00
  +0.00000000000000000000e+00
  +0.00000000000000000000e+00
  +0.00000000000000000000e+00
  +0.00000000000000000000e+00
  +0.00000000000000000000e+00
  +0.00000000000000000000e+00
  +0.00000000000000000000e+00
  +0.00000000000000000000e+00
  +0.00000000000000000000e+00
  +0.00000000000000000000e+00
  +1.00000000000000000000e+00
  +1.00000000000000000000e+00
  +1.00000000000000000000e+00
  +1.00000000000000000000e+00
  +1.00000000000000000000e+00
  +1.00000000000000000000e+00
  +1.00000000000000000000e+00
  +1.00000000000000000000e+00
  +1.00000000000000000000e+00
  +1.00000000000000000000e+00
  +1.00000000000000000000e+00
  +0.00000000000000000000e+00
  +0.00000000000000000000e+00
  +0.00000000000000000000e+00
  +0.00000000000000000000e+00
  +0.00000000000000000000e+00
  +0.00000000000000000000e+00
